Title: // Generated for: spectre
Date: 10:58:03 AM, Sat Feb 15, 2014
Plotname: Transient Analysis `TimeDennis': time = (0 s -> 500 ns)
Flags: real
No. Variables:       10
No. Points:     1513
Variables:	0	time	s
		1	R4:1	A plot=0 grid=0
		2	R4:pwr	W plot=0 grid=0
		3	vout	V plot=0 grid=0
		4	vinc	V plot=0 grid=0
		5	vinb	V plot=0 grid=0
		6	clk	V plot=0 grid=0
		7	V2:p	A plot=0 grid=0
		8	V10:p	A plot=0 grid=0
		9	V11:p	A plot=0 grid=0
Values:
 0	0	6.6001459434461e-07	4.3561926474788e-10
	0.00066001459434461	0.4	0.4
	0	0	-2.23302055560522e-07
	-1.5534963908874e-06
 1	3.90625e-14	6.60035045383002e-07	4.35646261133742e-10
	0.000660035045383002	0.4	0.4
	0.0015625	-0.00189698541031451	3.35498160116786e-05
	0.00026803043842518
 2	1.171875e-13	6.60073649290497e-07	4.35697222487674e-10
	0.000660073649290497	0.4	0.4
	0.0046875	-0.00216277239617179	9.56654077910612e-05
	0.000394916340131558
 3	2.734375e-13	6.60146464175168e-07	4.35793354162976e-10
	0.000660146464175168	0.4	0.4
	0.0109375	-0.00264939142349133	0.000207855646300959
	0.000625500347062853
 4	5.64692202583521e-13	6.60262991216218e-07	4.35947217569787e-10
	0.000660262991216218	0.4	0.4
	0.0225876881033408	-0.00342281767854436	0.000376879442187486
	0.0009746762673022
 5	1.12046126083102e-12	6.60434059009934e-07	4.36173146300337e-10
	0.000660434059009934	0.4	0.4
	0.0448184504332408	-0.00442784603560901	0.000604930554185967
	0.00144829249727803
 6	1.80189854335356e-12	6.60583815610009e-07	4.36370977445879e-10
	0.000660583815610009	0.4	0.4
	0.0720759417341424	-0.00526895325706783	0.000773351079142778
	0.00179197504110078
 7	2.59163759027484e-12	6.60710198185616e-07	4.36537965986476e-10
	0.000660710198185616	0.4	0.4
	0.103665503610994	-0.00613261689567202	0.000879343709429845
	0.0019775938154538
 8	3.51537147989302e-12	6.60822794717602e-07	4.36686766018382e-10
	0.000660822794717602	0.4	0.4
	0.140614859195721	-0.00756419933386611	0.000904705495146833
	0.00195059531440561
 9	4.81399704858895e-12	6.60944023944631e-07	4.36847002788121e-10
	0.000660944023944631	0.4	0.4
	0.192559881943558	-0.0105456340443991	0.000786229011888651
	0.00150320902714385
 10	6.13127385420081e-12	6.60921255151799e-07	4.36816905511429e-10
	0.000660921255151799	0.4	0.4
	0.245250954168033	-0.0148586589804064	0.000483915073934319
	0.000819712951095034
 11	7.4591629654703e-12	6.60490852644465e-07	4.36248166427012e-10
	0.000660490852644464	0.4	0.4
	0.298366518618812	-0.0203152352989938	6.47958471876206e-05
	-6.64963914840115e-05
 12	7.76702053421094e-12	6.60266406935e-07	4.35951728126855e-10
	0.000660266406935	0.4	0.4
	0.310680821368438	-0.0212889419459445	-3.61186011018273e-05
	-0.000402960442172001
 13	7.92094931858127e-12	6.60106856928182e-07	4.35741062563603e-10
	0.000660106856928182	0.4	0.4
	0.316837972743251	-0.0217557646170685	-5.96451597688359e-05
	-0.000551446113449712
 14	8.11168265858916e-12	6.5979602923157e-07	4.35330800189746e-10
	0.00065979602923157	0.4	0.4
	0.324467306343567	-0.0212926554141784	-8.68158116496026e-05
	-0.000895505606915239
 15	8.22896035615193e-12	6.59432836794621e-07	4.34851666243001e-10
	0.000659432836794621	0.4	0.4
	0.329158414246077	-0.018853840764828	-6.78742621736859e-05
	-0.00139394111746659
 16	8.36991094479657e-12	6.58570615417122e-07	4.33715255490887e-10
	0.000658570615417122	0.4	0.4
	0.334796437791863	-0.0131004042465043	-1.0729287102324e-05
	-0.0023269321639608
 17	8.4786969797681e-12	6.57896570547013e-07	4.32827897537521e-10
	0.000657896570547013	0.4	0.4
	0.339147879190724	-0.0179704903364111	2.51994436920285e-05
	-0.00202630907891731
 18	8.55987138518748e-12	6.57453001312795e-07	4.32244448935202e-10
	0.000657453001312795	0.4	0.4
	0.342394855407499	-0.0136336428166613	2.20159481568427e-05
	-0.00329784290744909
 19	8.66189403397857e-12	6.56895812064374e-07	4.31512107907714e-10
	0.000656895812064374	0.4	0.4
	0.346475761359143	-0.015823400452613	4.47067212661848e-05
	-0.00343239005084315
 20	8.79600801016729e-12	6.56117333511892e-07	4.30489955334756e-10
	0.000656117333511892	0.4	0.4
	0.351840320406692	-0.00950854121127889	4.0839945189206e-05
	-0.00518872745214928
 21	8.9665413582428e-12	6.55130975915954e-07	4.2919659560459e-10
	0.000655130975915954	0.4	0.4
	0.358661654329712	-0.0112161538443641	6.19552257113197e-05
	-0.00571985354354878
 22	9.14732217546883e-12	6.54192786457582e-07	4.27968201853136e-10
	0.000654192786457582	0.4	0.4
	0.365892887018753	-0.00599502140926122	5.4431143788958e-05
	-0.007530308937549
 23	9.34438349313816e-12	6.53333827994015e-07	4.26845090801313e-10
	0.000653333827994015	0.4	0.4
	0.373775339725527	-0.00879867637485371	7.06509026641289e-05
	-0.00787652790975122
 24	9.58928792762233e-12	6.5250511130162e-07	4.25762920274739e-10
	0.00065250511130162	0.4	0.4
	0.383571517104893	-0.00404709769573267	6.0764029381839e-05
	-0.00981510004870763
 25	9.79464396381117e-12	6.52028500746971e-07	4.25141165786342e-10
	0.00065202850074697	0.4	0.4
	0.391785758552447	-0.00745445070535629	7.55532331047991e-05
	-0.0102745860916569
 26	1e-11	6.5182954272849e-07	4.24881752773632e-10
	0.00065182954272849	0.4	0.4
	0.4	-0.00297758931773385	6.4570539726916e-05
	-0.0122522889935699
 27	1.01607564793656e-11	6.51790440315141e-07	4.24830778086205e-10
	0.000651790440315141	0.4	0.4
	0.4	-0.00207179901322522	-1.84386124197622e-07
	-0.0134579833411486
 28	1.03439054148867e-11	6.5191011683523e-07	4.24986800432124e-10
	0.00065191011683523	0.4	0.4
	0.4	-0.0015711598387725	-1.86216506675545e-07
	-0.0151384301588497
 29	1.05246505680676e-11	6.52360966322735e-07	4.25574830381533e-10
	0.000652360966322735	0.4	0.4
	0.4	-0.00123562672565395	-1.87856360077865e-07
	-0.0168351437881191
 30	1.08861408744293e-11	6.54220444500303e-07	4.28004390002174e-10
	0.000654220444500303	0.4	0.4
	0.4	-0.000630554350308705	-1.90892299172841e-07
	-0.0201996577134872
 31	1.13664999080314e-11	6.58468131149799e-07	4.33580279739908e-10
	0.000658468131149799	0.4	0.4
	0.4	-0.000176773598695683	-1.94718180771958e-07
	-0.0244101297676451
 32	1.20646017607404e-11	6.67533313288593e-07	4.45600724350047e-10
	0.000667533313288593	0.4	0.4
	0.4	0.000360458395453269	-2.00074727791517e-07
	-0.0298182060808743
 33	1.28247713645469e-11	6.80594960264492e-07	4.63209499937426e-10
	0.000680594960264492	0.4	0.4
	0.4	0.000760112831287805	-2.05835686686417e-07
	-0.0354615299196469
 34	1.3479456588763e-11	6.93206960430645e-07	4.80535889989494e-10
	0.000693206960430645	0.4	0.4
	0.4	0.00125639222707716	-2.0824911540993e-07
	-0.0379905144642102
 35	1.40860294218913e-11	7.04995463875937e-07	4.97018604085647e-10
	0.000704995463875937	0.4	0.4
	0.4	0.000647543912097617	-2.089643044747e-07
	-0.038784432661435
 36	1.48042342054364e-11	7.18807841446156e-07	5.16684712924482e-10
	0.000718807841446156	0.4	0.4
	0.4	0.000671625372273408	-2.09645625764278e-07
	-0.0392528373728898
 37	1.55192721721647e-11	7.32526607002997e-07	5.36595229967322e-10
	0.000732526607002997	0.4	0.4
	0.4	0.000126127676303208	-2.10354084241495e-07
	-0.0396855142435253
 38	1.63866601486576e-11	7.49279968493761e-07	5.61420471186011e-10
	0.000749279968493761	0.4	0.4
	0.4	0.000353416172351411	-2.11213035003433e-07
	-0.0401248635720566
 39	1.75240804489291e-11	7.71528341957576e-07	5.95255982443806e-10
	0.000771528341957576	0.4	0.4
	0.4	-6.08364016178968e-05	-2.12282545534262e-07
	-0.0406534476025574
 40	1.89511080654675e-11	7.99875238845389e-07	6.39800397717968e-10
	0.000799875238845389	0.4	0.4
	0.4	0.000241859959904369	-2.13529361243359e-07
	-0.0411400249480155
 41	2.09080728633272e-11	8.39403826353419e-07	7.0459878369676e-10
	0.000839403826353419	0.4	0.4
	0.4	-0.000166599898782572	-2.15076466766458e-07
	-0.0416809625321873
 42	2.36556088062955e-11	8.95938015108287e-07	8.02704926916177e-10
	0.000895938015108287	0.4	0.4
	0.4	0.000171966947645527	-2.16920151317485e-07
	-0.0422218601811713
 43	2.69192661648966e-11	9.64221057107315e-07	9.29722246969148e-10
	0.000964221057107315	0.4	0.4
	0.4	-0.00018615587509286	-2.18590242396898e-07
	-0.0426151451738157
 44	3.10439010411807e-11	1.05156581693512e-06	1.10579066734642e-09
	0.00105156581693512	0.4	0.4
	0.4	0.000166905454970418	-2.20101685538623e-07
	-0.0428759895825951
 45	3.65323056227579e-11	1.16883359206087e-06	1.36617196592992e-09
	0.00116883359206087	0.4	0.4
	0.4	-0.000185698383445249	-2.21397080023519e-07
	-0.0430796463966035
 46	4.35659811038577e-11	1.32004009183572e-06	1.74250584405367e-09
	0.00132004009183572	0.4	0.4
	0.4	0.000173276576354418	-2.22313601276975e-07
	-0.0431766184302195
 47	5.30651239674376e-11	1.52491850126728e-06	2.32537643550725e-09
	0.00152491850126728	0.4	0.4
	0.4	-0.000180547094355804	-2.22914402608947e-07
	-0.0432260111014512
 48	6.48624267656317e-11	1.77969976843945e-06	3.16733126578342e-09
	0.00177969976843945	0.4	0.4
	0.4	0.000177103198280858	-2.23171551856858e-07
	-0.0432172123330841
 49	8.09062199269461e-11	2.12614321985874e-06	4.52048499135129e-09
	0.00212614321985874	0.4	0.4
	0.4	-0.000179041515935713	-2.23262648385704e-07
	-0.0431851958473231
 50	1.01734548048733e-10	2.57542456248647e-06	6.63281167705864e-09
	0.00257542456248647	0.4	0.4
	0.4	0.000177604511121781	-2.23274045642854e-07
	-0.0431196096816224
 51	1.34776901330233e-10	3.28684480127809e-06	1.08033487476888e-08
	0.00328684480127809	0.4	0.4
	0.4	-0.000178991896974157	-2.23275188836439e-07
	-0.0430277013861536
 52	1.90799019643476e-10	4.48926380515795e-06	2.01534895123012e-08
	0.00448926380515795	0.4	0.4
	0.4	0.000177617498180895	-2.23273673085475e-07
	-0.0428576299133216
 53	3.02843256269963e-10	6.87974975296008e-06	4.73309566633543e-08
	0.00687974975296008	0.4	0.4
	0.4	-0.000178982180766653	-2.2327628409519e-07
	-0.0425282699919391
 54	5.26931729522937e-10	1.1603242722477e-05	1.34635241676716e-07
	0.011603242722477	0.4	0.4
	0.4	0.000177631940731844	-2.23274387822682e-07
	-0.0418588716448116
 55	9.75108676028886e-10	2.08197931520052e-05	4.33463786892284e-07
	0.0208197931520052	0.4	0.4
	0.4	-0.000178948479588602	-2.23277733016089e-07
	-0.0405272311352965
 56	1.87146256904078e-09	3.84304257545802e-05	1.4768976236783e-06
	0.0384304257545802	0.4	0.4
	0.4	0.000177628064622826	-2.23274589651011e-07
	-0.0383021418487823
 57	3.14888610234018e-09	6.17835981659923e-05	3.8172130023368e-06
	0.0617835981659923	0.4	0.4
	0.4	-0.000178862594603574	-2.23281278605877e-07
	-0.0352586659618592
 58	4.85522318726072e-09	8.98443932631696e-05	8.07201500082708e-06
	0.0898443932631696	0.4	0.4
	0.4	0.00017778525521943	-2.23281428326005e-07
	-0.0312528834434756
 59	7.96669412827691e-09	0.000132348956333868	1.7516246242664e-05
	0.132348956333868	0.4	0.4
	0.4	-0.000178666840186883	-2.2328900864244e-07
	-0.0246205411971801
 60	1.14081184570656e-08	0.00016804374094832	2.82386988719059e-05
	0.16804374094832	0.4	0.4
	0.4	0.000178023437045501	-2.23289715657858e-07
	-0.0188358991436218
 61	1.40373925618661e-08	0.000188849143299271	3.56639989248686e-05
	0.188849143299271	0.4	0.4
	0.4	-0.000178525162111232	-2.23294247248586e-07
	-0.0154523679652879
 62	1.66666666666667e-08	0.000205389870534702	4.21849989182617e-05
	0.205389870534702	0.4	0.4
	0.4	0.00017813152365149	-2.23293416235398e-07
	-0.0128209273377692
 63	1.66691666666667e-08	0.000205403181234701	4.21904668613354e-05
	0.205403181234701	0.4	0.4
	0.300000000000019	0.00335987404957484	-0.000321337991571647
	-0.0137478276040652
 64	1.66718043871233e-08	0.000205421742531438	4.21980923046525e-05
	0.205421742531438	0.4	0.4
	0.194491181732758	0.00450647759825792	-0.00275175556573807
	-0.0149512107881317
 65	1.6672754289336e-08	0.000205429703587675	4.22013631161198e-05
	0.205429703587675	0.4	0.4
	0.15649509322615	0.00572760380617955	-0.00438306019877693
	-0.0129172481168145
 66	1.66735928544683e-08	0.000205432970990595	4.22027055700226e-05
	0.205432970990595	0.4	0.4
	0.122952487933291	0.016188629283224	-0.006025228098186
	-0.0121631773515458
 67	1.66742057944926e-08	0.000205434663219325	4.22034008520377e-05
	0.205434663219325	0.4	0.4
	0.0984348869628623	0.0110625767545223	-0.00732681171376966
	-0.0117606010184376
 68	1.66748904807538e-08	0.000205436038493583	4.22039659119371e-05
	0.205436038493583	0.4	0.4
	0.0710474365131446	0.0186682588188235	-0.00859042745570532
	-0.0104522037734434
 69	1.66754258583947e-08	0.000205436739917377	4.22042541078799e-05
	0.205436739917377	0.4	0.4
	0.0496323308802011	0.0117508612741378	-0.00941772708129043
	-0.00972880003820139
 70	1.66760300816243e-08	0.000205437226450599	4.22044540117145e-05
	0.205437226450599	0.4	0.4
	0.0254634016957505	0.0179129224959716	-0.00981565149088666
	-0.00874755326317257
 71	1.66766666666667e-08	0.000205437462601663	4.22045510402096e-05
	0.205437462601663	0.4	0.4
	0	0.00990675904975743	-0.00993321462178368
	-0.00806592109215985
 72	1.66768630744846e-08	0.000205437563921228	4.22045926698888e-05
	0.205437563921228	0.4	0.4
	0	0.00979170707867566	-0.00956776049497821
	-0.00684404136954577
 73	1.66771906588843e-08	0.000205437680952888	4.22046407553007e-05
	0.205437680952888	0.4	0.4
	0	0.0074435652638737	-0.00904962017441496
	-0.00556336637671741
 74	1.66774957108822e-08	0.000205437706596668	4.22046512916987e-05
	0.205437706596668	0.4	0.4
	0	0.00577858210283823	-0.00864095932677118
	-0.00476389457750649
 75	1.66780599029711e-08	0.000205437621752541	4.220461643134e-05
	0.205437621752541	0.4	0.4
	0	0.00371924729681746	-0.0080936479162437
	-0.0039218617640387
 76	1.66786678132387e-08	0.000205437420308314	4.22045336629348e-05
	0.205437420308314	0.4	0.4
	0	0.0024840872042635	-0.00768617567783749
	-0.00366391074570623
 77	1.66793921260119e-08	0.000205437106732905	4.22044048227872e-05
	0.205437106732905	0.4	0.4
	0	0.00172306604417334	-0.00734486073534378
	-0.00375667363612273
 78	1.66802403702263e-08	0.000205436664085672	4.22042229506492e-05
	0.205436664085672	0.4	0.4
	0	0.00104705597806295	-0.0069713826323561
	-0.00401963071570993
 79	1.66806900454368e-08	0.000205436394986794	4.22041123851702e-05
	0.205436394986794	0.4	0.4
	0	0.000643837422883927	-0.00669383257349286
	-0.00438852544928309
 80	1.66811045106819e-08	0.000205436172711659	4.22040210584146e-05
	0.205436172711659	0.4	0.4
	0	-2.24797225549604e-05	-0.00609165846732098
	-0.00561186245798382
 81	1.6681478419834e-08	0.000205436197022988	4.22040310472678e-05
	0.205436197022988	0.4	0.4
	0	-0.000195775308803461	-0.00549636828727254
	-0.0074325812483453
 82	1.66817761495755e-08	0.000205436457625399	4.22041381216724e-05
	0.205436457625399	0.4	0.4
	0	6.59493222382882e-06	-0.00505659568999568
	-0.00876158318193839
 83	1.66820502185196e-08	0.000205436879963734	4.22043116492335e-05
	0.205436879963734	0.4	0.4
	0	-3.1919506350691e-05	-0.00468534358457088
	-0.0096153602690048
 84	1.66824090738711e-08	0.000205437683462992	4.22046417866405e-05
	0.205437683462992	0.4	0.4
	0	6.35140514984329e-05	-0.00418696479990133
	-0.0106429366666922
 85	1.66828135302832e-08	0.00020543889991589	4.22051415986512e-05
	0.20543889991589	0.4	0.4
	0	1.20576837557365e-05	-0.00369993560650774
	-0.0114469382113925
 86	1.66833437405871e-08	0.000205440917513961	4.22059705889783e-05
	0.205440917513961	0.4	0.4
	0	0.000179007028999199	-0.00311296278343993
	-0.0124058411133953
 87	1.66840188954236e-08	0.000205443979099988	4.22072285484361e-05
	0.205443979099988	0.4	0.4
	0	0.000146544970594532	-0.00253613958066043
	-0.0132135518231301
 88	1.66848407657338e-08	0.000205448225405098	4.2208973322104e-05
	0.205448225405098	0.4	0.4
	0	0.000330436595173368	-0.0019710547105699
	-0.0141091036742778
 89	1.66859135050528e-08	0.000205454412270074	4.22115155212417e-05
	0.205454412270074	0.4	0.4
	0	0.000298564582678003	-0.00146364201130197
	-0.0147310639657539
 90	1.66874572181969e-08	0.000205464128045369	4.22155079134436e-05
	0.205464128045369	0.4	0.4
	0	0.000390802148615429	-0.000953737040748624
	-0.0153701336512735
 91	1.66891621166581e-08	0.00020547545423918	4.22201622947972e-05
	0.20547545423918	0.4	0.4
	0	0.000225038758673094	-0.000636015228356827
	-0.0155679870047755
 92	1.66911973449039e-08	0.000205489311602125	4.22258571827152e-05
	0.205489311602125	0.4	0.4
	0	0.000242724730654072	-0.000384920190991742
	-0.0158043633124981
 93	1.66937652365032e-08	0.000205507003279755	4.22331283970251e-05
	0.205507003279755	0.4	0.4
	0	6.19471655902128e-05	-0.000233244077440501
	-0.0157992709453298
 94	1.6697186181087e-08	0.000205530710840624	4.22428730986524e-05
	0.205530710840624	0.4	0.4
	0	0.000111098187169609	-0.00010425731352133
	-0.0159343584550233
 95	1.67013482524517e-08	0.000205559634537503	4.22547633511919e-05
	0.205559634537503	0.4	0.4
	0	-2.63653925861287e-05	-5.7217962151389e-05
	-0.0158673704344339
 96	1.6706653748666e-08	0.000205596543023987	4.2269938503414e-05
	0.205596543023987	0.4	0.4
	0	6.24237819709103e-05	-9.61497770862027e-06
	-0.0159622071544622
 97	1.67135721022619e-08	0.000205644676404313	4.22897329334345e-05
	0.205644676404313	0.4	0.4
	0	-5.01446154855737e-05	-1.16045488282762e-05
	-0.0158711901843081
 98	1.67231419577026e-08	0.000205711223472787	4.23171074626711e-05
	0.205711223472788	0.4	0.4
	0	5.3874574889073e-05	6.88033660521236e-06
	-0.01594945389879
 99	1.67369932071664e-08	0.000205807443782934	4.23567039164657e-05
	0.205807443782934	0.4	0.4
	0	-5.20580632607827e-05	-7.94853310171243e-06
	-0.0158450502135018
 100	1.67599174109574e-08	0.000205966422898462	4.2422167361588e-05
	0.205966422898462	0.4	0.4
	0	5.37730288340239e-05	7.07096250799499e-06
	-0.0159063121804179
 101	1.68057658185395e-08	0.000206283379872398	4.25528328115802e-05
	0.206283379872398	0.4	0.4
	0	-5.20564714338405e-05	-7.97170574401196e-06
	-0.0157644540940363
 102	1.68974626337036e-08	0.00020691332508355	4.28131240971307e-05
	0.20691332508355	0.4	0.4
	0	5.37541183680632e-05	7.07672142926513e-06
	-0.0157460607557003
 103	1.70808562640319e-08	0.000208157618444965	4.33295941166797e-05
	0.208157618444965	0.4	0.4
	0	-5.20909064167961e-05	-7.97218624368426e-06
	-0.0154478251236965
 104	1.74476435246884e-08	0.000210585031068491	4.43460553101173e-05
	0.210585031068491	0.4	0.4
	0	5.37402595657489e-05	7.08861310873016e-06
	-0.0151258532978749
 105	1.81812180460015e-08	0.000215203923664476	4.63127287605856e-05
	0.215203923664476	0.4	0.4
	0	-5.21532353648154e-05	-7.95053503880653e-06
	-0.0142573950715281
 106	1.96483670886276e-08	0.000223579289556767	4.99876987187088e-05
	0.223579289556767	0.4	0.4
	0	5.3606943875755e-05	7.11920072257705e-06
	-0.0129388724946624
 107	2.25826651738799e-08	0.00023744398732453	5.63796471165716e-05
	0.23744398732453	0.4	0.4
	0	-5.23788127190763e-05	-7.89679566677682e-06
	-0.0105471734352497
 108	2.77527936938218e-08	0.000254983115788866	6.5016389337398e-05
	0.254983115788866	0.4	0.4
	0	5.32945718214027e-05	7.19121284310982e-06
	-0.00777192037216407
 109	3.33333333333333e-08	0.000267238601741407	7.14164702607022e-05
	0.267238601741407	0.4	0.4
	0	-5.26744627621193e-05	-7.83047443092523e-06
	-0.005699327740536
 110	3.33333723958333e-08	0.000267238745040134	7.1416546850626e-05
	0.267238745040134	0.4	0.4
	0.00156249999984461	-0.00316540343797818	2.60096768078655e-05
	-0.00554250624161299
 111	3.33334505208333e-08	0.000267239034434739	7.14167015256117e-05
	0.267239034434739	0.4	0.4
	0.00468749999953382	-0.00342646608409001	7.57653026869674e-05
	-0.00546682451601951
 112	3.33336067708333e-08	0.00026723962707261	7.14170182779077e-05
	0.26723962707261	0.4	0.4
	0.0109374999989123	-0.00389804453840313	0.000168935232813254
	-0.00533062326026515
 113	3.33339192708333e-08	0.000267240867555546	7.14176812918409e-05
	0.267240867555546	0.4	0.4
	0.0234374999976691	-0.00477025906466515	0.000333185728992173
	-0.00512976196189977
 114	3.33345442708332e-08	0.00026724352643958	7.14191024238628e-05
	0.26724352643958	0.4	0.4
	0.0484374999951828	-0.00605367700827704	0.00058217444052719
	-0.0049055541765958
 115	3.33354811462912e-08	0.000267247717127828	7.14213423100355e-05
	0.267247717127828	0.4	0.4
	0.0859125183140089	-0.00745320496137059	0.000808596283570111
	-0.00474674820032242
 116	3.33365584772544e-08	0.000267252428714552	7.14238606538266e-05
	0.267252428714552	0.4	0.4
	0.129005756840858	-0.00902386733019708	0.000904804741165204
	-0.00469337177272666
