Title: // Generated for: spectre
Date: 10:58:36 AM, Sat Feb 15, 2014
Plotname: Transient Analysis `TimeDennis': time = (0 s -> 500 ns)
Flags: real
No. Variables:       10
No. Points:     1661
Variables:	0	time	s
		1	R4:1	A plot=0 grid=0
		2	R4:pwr	W plot=0 grid=0
		3	vout	V plot=0 grid=0
		4	vinc	V plot=0 grid=0
		5	vinb	V plot=0 grid=0
		6	clk	V plot=0 grid=0
		7	V2:p	A plot=0 grid=0
		8	V10:p	A plot=0 grid=0
		9	V11:p	A plot=0 grid=0
Values:
 0	0	6.6001459434461e-07	4.3561926474788e-10
	0.00066001459434461	0.4	0.4
	0	0	-2.23302055560522e-07
	-1.5534963908874e-06
 1	3.90625e-14	6.60150915947483e-07	4.357992318263e-10
	0.000660150915947483	0.4	0.4
	0.0015625	-0.00189690857903238	3.3549649906419e-05
	0.000268027263858684
 2	1.171875e-13	6.60408239606078e-07	4.36139042939598e-10
	0.000660408239606078	0.4	0.4
	0.0046875	-0.00216269684208486	9.5664744413409e-05
	0.000394915073133541
 3	2.734375e-13	6.60893603774738e-07	4.36780355510361e-10
	0.000660893603774738	0.4	0.4
	0.0109375	-0.00264931526096189	0.000207853862922836
	0.000625502598759117
 4	5.64681455711847e-13	6.6167031102747e-07	4.37807600495189e-10
	0.00066167031102747	0.4	0.4
	0.0225872582284739	-0.00342270308702907	0.00037686982734737
	0.0009746730426946
 5	1.12043394962463e-12	6.62810568557904e-07	4.39317849792052e-10
	0.000662810568557904	0.4	0.4
	0.0448173579849852	-0.00442767608773335	0.000604912577889096
	0.00144829354096385
 6	1.80182089186229e-12	6.63808753234128e-07	4.40642060870248e-10
	0.000663808753234128	0.4	0.4
	0.0720728356744915	-0.00526868278358709	0.000773328165882053
	0.00179197446936025
 7	2.59151081762493e-12	6.64651125917358e-07	4.41761119183212e-10
	0.000664651125917358	0.4	0.4
	0.103660432704997	-0.00613225406243438	0.000879320871188169
	0.00197764022652078
 8	3.51520130872173e-12	6.65401305140537e-07	4.4275889688273e-10
	0.000665401305140537	0.4	0.4
	0.140608052348869	-0.00756364512452509	0.000904707935013586
	0.00195079997259571
 9	4.81382342119265e-12	6.66208222079662e-07	4.43833395166545e-10
	0.000666208222079662	0.4	0.4
	0.192552936847706	-0.0105449290942557	0.000786247689890013
	0.00150349776397222
 10	6.13120274055358e-12	6.66054841465934e-07	4.4362905184021e-10
	0.000666054841465934	0.4	0.4
	0.245248109622143	-0.0148582657798577	0.000483931413140228
	0.000820062331803888
 11	7.45903242674313e-12	6.63185036476261e-07	4.39814392606019e-10
	0.000663185036476261	0.4	0.4
	0.298361297069725	-0.0203148111947314	6.48330820201544e-05
	-6.62060170978714e-05
 12	7.7668959086861e-12	6.6168912063097e-07	4.37832492361386e-10
	0.00066168912063097	0.4	0.4
	0.310675836347444	-0.0212888409168868	-3.60823075496447e-05
	-0.000402703616508426
 13	7.92082764965759e-12	6.6062589454514e-07	4.36426572543567e-10
	0.00066062589454514	0.4	0.4
	0.316833105986304	-0.0217560066008821	-5.96297046532609e-05
	-0.00055116065908394
 14	8.11167727465675e-12	6.58553380690612e-07	4.33692555219034e-10
	0.000658553380690612	0.4	0.4
	0.32446709098627	-0.0212938526987905	-8.68047953352126e-05
	-0.00089533961215946
 15	8.22896652022075e-12	6.5613271842109e-07	4.30510144182649e-10
	0.00065613271842109	0.4	0.4
	0.32915866080883	-0.0188555963250173	-6.78733821878241e-05
	-0.00139376489797159
 16	8.36995185361657e-12	6.5038440708243e-07	4.22999876975964e-10
	0.00065038440708243	0.4	0.4
	0.334798074144663	-0.0131018021089846	-1.07180741773855e-05
	-0.00232710814878371
 17	8.47873373025376e-12	6.45891756762512e-07	4.17176161453763e-10
	0.000645891756762512	0.4	0.4
	0.33914934921015	-0.0179714371837695	2.5202181983478e-05
	-0.00202634793554029
 18	8.5599132081882e-12	6.42935421357946e-07	4.13365956036719e-10
	0.000642935421357946	0.4	0.4
	0.342396528327528	-0.0136358315840992	2.20228721888759e-05
	-0.00329823249356059
 19	8.6619331140595e-12	6.39222785918975e-07	4.08605770038016e-10
	0.000639222785918975	0.4	0.4
	0.34647732456238	-0.0158253290305136	4.4707417812289e-05
	-0.00343261352723319
 20	8.79603771864705e-12	6.34036951938736e-07	4.02002856423763e-10
	0.000634036951938736	0.4	0.4
	0.351841508745882	-0.00951202919083194	4.08449053965552e-05
	-0.00518919691651638
 21	8.96660296292793e-12	6.27465756718738e-07	3.93713275854618e-10
	0.000627465756718738	0.4	0.4
	0.358664118517117	-0.0112182039427707	6.19547612525059e-05
	-0.00572033075630253
 22	9.14740763420596e-12	6.2121674404126e-07	3.85910243077225e-10
	0.00062121674404126	0.4	0.4
	0.365896305368238	-0.00599710792612754	5.4436539154055e-05
	-0.00753106881811889
 23	9.34449157046412e-12	6.15497482256811e-07	3.78837150664473e-10
	0.000615497482256811	0.4	0.4
	0.373779662818565	-0.008799700874979	7.06491639680541e-05
	-0.00787686768971743
 24	9.58942888840562e-12	6.09982422398205e-07	3.72078555634782e-10
	0.000609982422398205	0.4	0.4
	0.383577155536225	-0.00404786929528572	6.07686410852655e-05
	-0.00981543729376599
 25	9.79471444420281e-12	6.06814605008579e-07	3.68223964851718e-10
	0.000606814605008579	0.4	0.4
	0.391788577768112	-0.00745519850816859	7.55507415064675e-05
	-0.0102739251790832
 26	1e-11	6.05496450916078e-07	3.66625952071966e-10
	0.000605496450916078	0.4	0.4
	0.4	-0.00297830638006171	6.45736642834414e-05
	-0.0122508067285377
 27	1.01607299993938e-11	6.05241293383413e-07	3.66317023216427e-10
	0.000605241293383413	0.4	0.4
	0.4	-0.00207254509576085	-1.84383298111658e-07
	-0.0134553720058525
 28	1.03438457198384e-11	6.06044212762272e-07	3.67289587822642e-10
	0.000606044212762272	0.4	0.4
	0.4	-0.00157167581395587	-1.86212810596783e-07
	-0.0151344912670666
 29	1.05245614681026e-11	6.09052764271318e-07	3.70945269666534e-10
	0.000609052764271318	0.4	0.4
	0.4	-0.00123611266127609	-1.87851833509671e-07
	-0.0168298886875475
 30	1.0885992964631e-11	6.21446405493104e-07	3.861956349003e-10
	0.000621446405493104	0.4	0.4
	0.4	-0.00062986510843421	-1.90885346895763e-07
	-0.0201909686783517
 31	1.13667771710563e-11	6.49778706258456e-07	4.22212367106913e-10
	0.000649778706258456	0.4	0.4
	0.4	-0.000176198225845901	-1.94711832642038e-07
	-0.0244013864643672
 32	1.20639702599615e-11	7.1009047138338e-07	5.04228477549471e-10
	0.00071009047138338	0.4	0.4
	0.4	0.00036094966723277	-2.00058950587788e-07
	-0.0297987775884512
 33	1.2824109255753e-11	7.97087688191675e-07	6.35348782666749e-10
	0.000797087688191675	0.4	0.4
	0.4	0.000760124664071051	-2.05819605915687e-07
	-0.0354413467841937
 34	1.34784758235733e-11	8.81029853421474e-07	7.76213602619864e-10
	0.000881029853421474	0.4	0.4
	0.4	0.00125576386623186	-2.08219137511791e-07
	-0.0379561291581286
 35	1.40828456940823e-11	9.59220315992914e-07	9.20103614613547e-10
	0.000959220315992914	0.4	0.4
	0.4	0.000642093329352001	-2.08925293905239e-07
	-0.0387377684343972
 36	1.48004386386092e-11	1.0510736751692e-06	1.1047558706337e-09
	0.0010510736751692	0.4	0.4
	0.4	0.000670129632610249	-2.09599847803413e-07
	-0.0391979916786881
 37	1.55154880523771e-11	1.14236809090812e-06	1.30500485512507e-09
	0.00114236809090812	0.4	0.4
	0.4	0.000121297025682548	-2.10304496305066e-07
	-0.0396239916406176
 38	1.63836500595857e-11	1.25392948381568e-06	1.57233915038225e-09
	0.00125392948381568	0.4	0.4
	0.4	0.000351546256004553	-2.11159801754857e-07
	-0.0400531603024922
 39	1.7519207010965e-11	1.40166082340295e-06	1.96465306386264e-09
	0.00140166082340295	0.4	0.4
	0.4	-6.64083227234894e-05	-2.12222041459853e-07
	-0.0405683422287689
 40	1.89460219268997e-11	1.59009809723241e-06	2.52841195882213e-09
	0.00159009809723241	0.4	0.4
	0.4	0.000239586191692152	-2.13457895714617e-07
	-0.0410357387747117
 41	2.09037174351514e-11	1.85283075564278e-06	3.43298180905579e-09
	0.00185283075564278	0.4	0.4
	0.4	-0.000167428856538986	-2.14993759094913e-07
	-0.0415368273415674
 42	2.36584540632832e-11	2.22904277274499e-06	4.96863168272667e-09
	0.00222904277274499	0.4	0.4
	0.4	0.000167290646030245	-2.16825706907081e-07
	-0.0420329713031586
 43	2.6926093008412e-11	2.68223390949111e-06	7.19437874522398e-09
	0.00268223390949111	0.4	0.4
	0.4	-0.000189801283686069	-2.18501194319858e-07
	-0.0423595772048768
 44	3.11054862311533e-11	3.26818592695903e-06	1.06810392531731e-08
	0.00326818592695903	0.4	0.4
	0.4	0.000163740123531837	-2.20001734625358e-07
	-0.0425769067981529
 45	3.63995556465975e-11	4.0155419860302e-06	1.61245774415713e-08
	0.0040155419860302	0.4	0.4
	0.4	-0.000190794115648455	-2.2126098157135e-07
	-0.0426508822558794
 46	4.39277757890406e-11	5.08190617718684e-06	2.58257703937297e-08
	0.00508190617718684	0.4	0.4
	0.4	0.000171055658109109	-2.22219485406545e-07
	-0.0426512529132552
 47	5.26985221504674e-11	6.32436192818165e-06	3.99975537986335e-08
	0.00632436192818165	0.4	0.4
	0.4	-0.000186444400418214	-2.22762674901448e-07
	-0.0425259341750165
 48	6.42199281590433e-11	7.95167228653906e-06	6.32290921525134e-08
	0.00795167228653906	0.4	0.4
	0.4	0.000175476219806442	-2.23013272122353e-07
	-0.0423432894393807
 49	8.03754316603451e-11	1.02202919828951e-05	1.04454368215631e-07
	0.0102202919828951	0.4	0.4
	0.4	-0.000185371590653885	-2.23119705696832e-07
	-0.0420198140487527
 50	1.00702199605631e-10	1.30501716660159e-05	1.70306980512485e-07
	0.0130501716660159	0.4	0.4
	0.4	0.00017668800169307	-2.23120895400282e-07
	-0.0416319943275913
 51	1.35085680141298e-10	1.77733747214077e-05	3.15892848987574e-07
	0.0177733747214077	0.4	0.4
	0.4	-0.000185637056006781	-2.23136832403534e-07
	-0.0409373468664499
 52	1.84946457979901e-10	2.44804524966405e-05	5.9929255444027e-07
	0.0244804524966405	0.4	0.4
	0.4	0.000177147067310117	-2.23129269003611e-07
	-0.0399667485196233
 53	2.80055055823595e-10	3.68673631724019e-05	1.35920246728578e-06
	0.0368673631724019	0.4	0.4
	0.4	-0.000186136521718313	-2.23134722911436e-07
	-0.0384570544713596
 54	4.17773953977066e-10	5.39281232808626e-05	2.90824248059591e-06
	0.0539281232808626	0.4	0.4
	0.4	0.000177830373607437	-2.23141847062987e-07
	-0.0362949744745205
 55	5.9048856499618e-10	7.38541615021592e-05	5.45443717118701e-06
	0.0738541615021591	0.4	0.4
	0.4	-0.00018553241992109	-2.23167221370499e-07
	-0.03354782028071
 56	8.98117227158251e-10	0.000105373550516324	1.11035851484162e-05
	0.105373550516324	0.4	0.4
	0.4	0.000178865752146683	-2.23183083083529e-07
	-0.0288699028266672
 57	1.33822425948971e-09	0.000142334278615661	2.02590468690406e-05
	0.142334278615661	0.4	0.4
	0.4	-0.000184222409981779	-2.23218884680396e-07
	-0.0229893500040151
 58	1.91718526436156e-09	0.000178831106970902	3.19805648204383e-05
	0.178831106970902	0.4	0.4
	0.4	0.000180294928025629	-2.23232110966107e-07
	-0.0170634081015327
 59	2.5319714775029e-09	0.000206223930663137	4.25283095781544e-05
	0.206223930663137	0.4	0.4
	0.4	-0.000183136852416956	-2.23260724634633e-07
	-0.0126674546706377
 60	3.2274158263751e-09	0.000227618620552542	5.18102364222423e-05
	0.227618620552542	0.4	0.4
	0.4	0.000181096483754981	-2.23261910773053e-07
	-0.00934573828635297
 61	3.99246906484106e-09	0.000243490094386363	5.92874260642798e-05
	0.243490094386363	0.4	0.4
	0.4	-0.000182634634977526	-2.23285290731722e-07
	-0.00693263342325207
 62	4.86518077006942e-09	0.00025546610816476	6.52629324208488e-05
	0.25546610816476	0.4	0.4
	0.4	0.000181522236181549	-2.23278052642751e-07
	-0.0051572401588844
 63	5.88661072147075e-09	0.000264422446416051	6.99192301686495e-05
	0.264422446416051	0.4	0.4
	0.4	-0.000182403273538268	-2.23299471351874e-07
	-0.00378755922582042
 64	7.11807989270155e-09	0.000270936965594583	7.34068393256001e-05
	0.270936965594583	0.4	0.4
	0.4	0.000181795945128371	-2.23286588093978e-07
	-0.00276978163646854
 65	8.52916567441914e-09	0.000275057426917367	7.56565881024024e-05
	0.275057426917367	0.4	0.4
	0.4	-0.000182274542852305	-2.2330685080081e-07
	-0.00200494173623908
 66	1.03842467752102e-08	0.000277510147767358	7.70118821138607e-05
	0.277510147767358	0.4	0.4
	0.4	0.000181958515630331	-2.23290385176698e-07
	-0.00143120427001498
 67	1.24296865159186e-08	0.000278050862334796	7.73122820451234e-05
	0.278050862334796	0.4	0.4
	0.4	-0.00018218271709978	-2.23309968733388e-07
	-0.00101111473891193
 68	1.45481765912926e-08	0.000277344643812414	7.6920051451435e-05
	0.277344643812414	0.4	0.4
	0.4	0.000182028146350281	-2.23291800648459e-07
	-0.000783814408752752
 69	1.66666666666667e-08	0.000275908494717353	7.61254974571958e-05
	0.275908494717353	0.4	0.4
	0.4	-0.000182135587731091	-2.23310574582041e-07
	-0.000588227812221627
 70	1.66691666666667e-08	0.000275896495112033	7.6118876015104e-05
	0.275896495112033	0.4	0.4
	0.300000000000019	0.00327542790868879	-0.000321355626835043
	-0.00168433061667808
 71	1.66718043992573e-08	0.000275912681674962	7.6127807909069e-05
	0.275912681674962	0.4	0.4
	0.1944906963756	0.00469188272767059	-0.00275186726782379
	-0.00550114079976829
 72	1.66724121826835e-08	0.000275924332693736	7.61342373724834e-05
	0.275924332693736	0.4	0.4
	0.170179359328626	0.00545678044034767	-0.00377156501930779
	-0.00689669769009419
 73	1.66727048073341e-08	0.000275930880609184	7.61378508737599e-05
	0.275930880609184	0.4	0.4
	0.158474373301517	0.00580909053940535	-0.00425398352521375
	-0.00745278185086347
 74	1.6673001363692e-08	0.000275937970678486	7.61417636621608e-05
	0.275937970678486	0.4	0.4
	0.146612118984994	0.00638949097478805	-0.00485468292825397
	-0.00812069569183512
 75	1.66732534862183e-08	0.00027594402713704	7.61451061126076e-05
	0.27594402713704	0.4	0.4
	0.136527217936255	0.00665386599657358	-0.00531666045697784
	-0.00833462779828048
 76	1.66735038069285e-08	0.000275948620797343	7.61476413199557e-05
	0.275948620797343	0.4	0.4
	0.126514389525907	0.00913682145213445	-0.00584767710815308
	-0.00885243722539424
 77	1.6673654509191e-08	0.000275950135256791	7.6148477148241e-05
	0.275950135256791	0.4	0.4
	0.120486299026522	0.0116715118473037	-0.00611251890346775
	-0.00954751335769071
 78	1.66738091860901e-08	0.000275951094565752	7.61490065920364e-05
	0.275951094565752	0.4	0.4
	0.114299223061593	0.0123365249639678	-0.00645406015445401
	-0.00997336468690362
 79	1.66740903871642e-08	0.000275952060351905	7.61495396124612e-05
	0.275952060351905	0.4	0.4
	0.10305118009729	0.0149684012152923	-0.00695717459537905
	-0.0109999319923751
 80	1.66743217798251e-08	0.00027595248002626	7.61497712326432e-05
	0.27595248002626	0.4	0.4
	0.093795473663651	0.0152308382737704	-0.00742633023828598
	-0.0114088101963674
 81	1.66746304780525e-08	0.000275952776030067	7.61499345987005e-05
	0.275952776030067	0.4	0.4
	0.0814475445663648	0.0169619611052941	-0.00793129461856305
	-0.011912215814182
 82	1.66750636119865e-08	0.000275952880064522	7.61499920159044e-05
	0.275952880064522	0.4	0.4
	0.064122187204772	0.0164640794505415	-0.00860705536614108
	-0.0116700176205788
 83	1.66756227165055e-08	0.000275952660879762	7.61498710466207e-05
	0.275952660879762	0.4	0.4
	0.0417580064480251	0.0169493985017289	-0.009142772887857
	-0.0113248182176144
 84	1.66761446915861e-08	0.000275952140749058	7.61495839839879e-05
	0.275952140749058	0.4	0.4
	0.0208790032240505	0.0151807414106712	-0.00943900744242232
	-0.0104264408639669
 85	1.66766666666667e-08	0.000275951449753298	7.61492026209467e-05
	0.275951449753297	0.4	0.4
	0	0.0149719419046944	-0.00959719396092088
	-0.00977099446808313
 86	1.66769331008962e-08	0.000275951921206168	7.6149462817375e-05
	0.275951921206168	0.4	0.4
	0	0.00999583972651877	-0.00922481359211058
	-0.00777998320350179
 87	1.66772531518823e-08	0.00027595249994202	7.61497822242506e-05
	0.27595249994202	0.4	0.4
	0	0.00742309644493401	-0.0088030442303465
	-0.00633125277174859
 88	1.66775558383323e-08	0.000275953256242497	7.61501996308372e-05
	0.275953256242497	0.4	0.4
	0	0.00583600423783221	-0.00848902917156369
	-0.00578184496249346
 89	1.66781405758389e-08	0.000275956562262672	7.61520242558322e-05
	0.275956562262672	0.4	0.4
	0	0.00319822290638175	-0.0080641053463526
	-0.00501458636889211
 90	1.6678734957803e-08	0.000275963748167827	7.61559903028356e-05
	0.275963748167827	0.4	0.4
	0	0.00192680345470449	-0.00773886727667208
	-0.00583031147737812
 91	1.66794128865819e-08	0.00027597770523296	7.61636937856503e-05
	0.27597770523296	0.4	0.4
	0	0.000757168956456944	-0.00736514077610116
	-0.00708037412578456
 92	1.66801766249429e-08	0.000276000351464033	7.61761940082696e-05
	0.276000351464033	0.4	0.4
	0	0.000302235478780952	-0.00687041615212706
	-0.00937134806974663
 93	1.66812418397438e-08	0.00027604163837284	7.61989861155618e-05
	0.27604163837284	0.4	0.4
	0	-0.000340458971397172	-0.00613218098914117
	-0.0121986488297018
 94	1.66824445139317e-08	0.000276098443451126	7.62303504761344e-05
	0.276098443451126	0.4	0.4
	0	-0.000439277792302371	-0.00523375094530318
	-0.0158260909062806
 95	1.6683750643701e-08	0.000276166990794408	7.62682068044387e-05
	0.276166990794408	0.4	0.4
	0	-0.000537831017720402	-0.00395264609859143
	-0.0199906696023017
 96	1.66849504903154e-08	0.000276231412676768	7.63037933494031e-05
	0.276231412676768	0.4	0.4
	0	-0.000200638555222918	-0.00248728617510441
	-0.024676894495917
 97	1.66858395838795e-08	0.000276286602138764	7.63342865213837e-05
	0.276286602138764	0.4	0.4
	0	-0.00141445107461265	-0.00192536030918783
	-0.0272956304958656
 98	1.66867189514684e-08	0.000276348469945212	7.636847684106e-05
	0.276348469945212	0.4	0.4
	0	0.000175454420136694	-0.00154714532419794
	-0.0294554258311564
 99	1.66879399114689e-08	0.000276443761942816	7.64211535170961e-05
	0.276443761942816	0.4	0.4
	0	-0.000651352684983486	-0.00118868635447181
	-0.0311675887080698
 100	1.66893461865212e-08	0.000276562832708179	7.64870004355719e-05
	0.276562832708178	0.4	0.4
	0	0.000813392240954452	-0.000854886750832706
	-0.0325496590631788
 101	1.66909880337852e-08	0.000276708944017841	7.65678396994686e-05
	0.276708944017841	0.4	0.4
	0	-0.000394466882730358	-0.000605114468161774
	-0.0331136529402907
 102	1.66927658829884e-08	0.00027687125742595	7.66576931886269e-05
	0.27687125742595	0.4	0.4
	0	0.000824611756860404	-0.000399018473090271
	-0.0336417675764232
 103	1.66949011757042e-08	0.000277068660701878	7.67670427431321e-05
	0.277068660701878	0.4	0.4
	0	-0.000494320075110526	-0.000269171749947283
	-0.0336980633515372
 104	1.669772564166e-08	0.00027733129844855	7.69126490991585e-05
	0.27733129844855	0.4	0.4
	0	0.000716709041793212	-0.000142079434632985
	-0.0339812314412022
 105	1.6701678549246e-08	0.000277699760554178	7.71171570118477e-05
	0.277699760554178	0.4	0.4
	0	-0.00058361199716752	-7.91639329107315e-05
	-0.0338809357230518
 106	1.67069889136015e-08	0.000278194120462731	7.73919686600323e-05
	0.278194120462731	0.4	0.4
	0	0.000655471099449334	-2.01998879636236e-05
	-0.0340111636271494
 107	1.6713874795446e-08	0.000278833246021064	7.77479790866433e-05
	0.278833246021064	0.4	0.4
	0	-0.000613286246383701	-1.78090912216149e-05
	-0.0337919617310374
 108	1.67227478473645e-08	0.000279652651760765	7.82056056368279e-05
	0.279652651760765	0.4	0.4
	0	0.000644837665869154	3.08936151096711e-06
	-0.0337948890518559
 109	1.67357278238511e-08	0.000280842031119086	7.88722464430937e-05
	0.280842031119086	0.4	0.4
	0	-0.000616265071211009	-1.18912662207467e-05
	-0.0334431358310599
 110	1.67566579835771e-08	0.000282736406083556	7.99398753250454e-05
	0.282736406083556	0.4	0.4
	0	0.000644145098734448	3.87158391443215e-06
	-0.0332378247728538
 111	1.67964515039398e-08	0.000286258609066957	8.19439912649488e-05
	0.286258609066957	0.4	0.4
	0	-0.000616858351076114	-1.17362459673922e-05
	-0.0324541741216573
 112	1.68760385446651e-08	0.000292998881134878	8.58483443462902e-05
	0.292998881134878	0.4	0.4
	0	0.00064284174472819	4.15157171760455e-06
	-0.0313274649700604
 113	1.70352126261157e-08	0.000305336655712099	9.32304733214486e-05
	0.305336655712099	0.4	0.4
	0	-0.000619419513226905	-1.14326766331278e-05
	-0.0287501297525882
 114	1.73447221570036e-08	0.000325513453906937	0.000105959008674423
	0.325513453906937	0.4	0.4
	0	0.000638938839102533	4.99163267159147e-06
	-0.0246514287036999
 115	1.78009688482533e-08	0.000347944010038747	0.000121065034121844
	0.347944010038747	0.4	0.4
	0	-0.000624171661356655	-1.02873281286526e-05
	-0.0194480115499047
 116	1.83594351031251e-08	0.000366984692143356	0.000134677764267554
	0.366984692143356	0.4	0.4
	0	0.000634604426070651	6.07751245723698e-06
	-0.0150412814652233
