Title: // Generated for: spectre
Date: 10:58:39 AM, Sat Feb 15, 2014
Plotname: Transient Analysis `TimeDennis': time = (0 s -> 500 ns)
Flags: real
No. Variables:       10
No. Points:     1418
Variables:	0	time	s
		1	R4:1	A plot=0 grid=0
		2	R4:pwr	W plot=0 grid=0
		3	vout	V plot=0 grid=0
		4	vinc	V plot=0 grid=0
		5	vinb	V plot=0 grid=0
		6	clk	V plot=0 grid=0
		7	V2:p	A plot=0 grid=0
		8	V10:p	A plot=0 grid=0
		9	V11:p	A plot=0 grid=0
Values:
 0	0	6.6001459434461e-07	4.3561926474788e-10
	0.00066001459434461	0.4	0.4
	0	0	-2.23302055560522e-07
	-1.5534963908874e-06
 1	3.90625e-14	6.60024819987269e-07	4.35632762999227e-10
	0.000660024819987269	0.4	0.4
	0.0015625	-0.00189699218824175	3.35498306797353e-05
	0.000268030718666387
 2	1.171875e-13	6.60044122177471e-07	4.35658243221028e-10
	0.000660044122177471	0.4	0.4
	0.0046875	-0.00216277906343187	9.56654663618399e-05
	0.000394916452008159
 3	2.734375e-13	6.60080530072489e-07	4.35706306180779e-10
	0.000660080530072489	0.4	0.4
	0.0109375	-0.0026493981463843	0.000207855803707272
	0.000625500148257104
 4	5.64693152089061e-13	6.60138794517791e-07	4.35783228027403e-10
	0.000660138794517791	0.4	0.4
	0.0225877260835624	-0.00342282779311989	0.000376880291304629
	0.000974676553105034
 5	1.12046368170665e-12	6.60224329702755e-07	4.35896165531452e-10
	0.000660224329702755	0.4	0.4
	0.0448185472682659	-0.00442786105159566	0.00060493214441024
	0.0014482924124305
 6	1.80190540882985e-12	6.60299209277715e-07	4.35995045772775e-10
	0.000660299209277715	0.4	0.4
	0.0720762163531939	-0.00526897714172511	0.000773353103475839
	0.00179197509587642
 7	2.59164879471817e-12	6.60362401742463e-07	4.36078501635075e-10
	0.000660362401742463	0.4	0.4
	0.103665951788727	-0.00613264893847297	0.000879345726969539
	0.00197758971818405
 8	3.51538651668721e-12	6.60418703082438e-07	4.36152863381089e-10
	0.000660418703082438	0.4	0.4
	0.140615460667488	-0.00756424828465462	0.000904705278375612
	0.00195057724708653
 9	4.81401239896164e-12	6.60479326156513e-07	4.36232940280162e-10
	0.000660479326156513	0.4	0.4
	0.192560495958466	-0.0105456963394948	0.000786227360122596
	0.00150318352891916
 10	6.13128015526832e-12	6.60467952276106e-07	4.36217915983793e-10
	0.000660467952276106	0.4	0.4
	0.245251206210733	-0.0148586937778086	0.000483913624029054
	0.000819682093919114
 11	7.45917451488551e-12	6.60252754029977e-07	4.3593369920417e-10
	0.000660252754029977	0.4	0.4
	0.29836698059542	-0.0203152728525405	6.47925527367629e-05
	-6.6522047241314e-05
 12	7.76703155893755e-12	6.60140528597838e-07	4.35785517497433e-10
	0.000660140528597838	0.4	0.4
	0.310681262357502	-0.0212889509211955	-3.6121811667273e-05
	-0.000402983139756962
 13	7.92096008096357e-12	6.60060750673452e-07	4.356801945796e-10
	0.000660060750673452	0.4	0.4
	0.316838403238543	-0.02175574325862	-5.96465258858311e-05
	-0.000551471343461779
 14	8.11168314487938e-12	6.59905339008306e-07	4.35475056451668e-10
	0.000659905339008306	0.4	0.4
	0.324467325795175	-0.0212925495932149	-8.68167856441673e-05
	-0.000895520295011435
 15	8.22895982006178e-12	6.59723738675826e-07	4.35235411372409e-10
	0.000659723738675826	0.4	0.4
	0.329158392802471	-0.018853685494194	-6.78743373154774e-05
	-0.00139395672273777
 16	8.36990733546053e-12	6.59292629116002e-07	4.3466677080669e-10
	0.000659292629116002	0.4	0.4
	0.334796293418421	-0.0131002807826265	-1.07302756249019e-05
	-0.0023269166180347
 17	8.47869373800369e-12	6.58955600179208e-07	4.3422248300754e-10
	0.000658955600179208	0.4	0.4
	0.339147749520148	-0.0179704069031992	2.5199201613109e-05
	-0.00202630566425645
 18	8.55986769300566e-12	6.58733810321325e-07	4.33930232860451e-10
	0.000658733810321325	0.4	0.4
	0.342394707720227	-0.0136334494591784	2.201533762649e-05
	-0.00329780849707474
 19	8.66189058756502e-12	6.58455202714026e-07	4.33563253981169e-10
	0.000658455202714026	0.4	0.4
	0.346475623502601	-0.0158232303194518	4.47066593813663e-05
	-0.00343237034440076
 20	8.79600539093868e-12	6.58065936800284e-07	4.33050777176836e-10
	0.000658065936800284	0.4	0.4
	0.351840215637547	-0.00950823305996757	4.08395082657779e-05
	-0.00518868600771164
 21	8.96653592737702e-12	6.57572728054105e-07	4.32401892680518e-10
	0.000657572728054105	0.4	0.4
	0.358661437095081	-0.0112159729076484	6.19552662928044e-05
	-0.00571981143727164
 22	9.14731464090346e-12	6.57103596210648e-07	4.31785136152967e-10
	0.000657103596210648	0.4	0.4
	0.365892585636138	-0.00599483455158038	5.44306684980453e-05
	-0.00753024167129745
 23	9.34437401977229e-12	6.56674069660133e-07	4.31220833764001e-10
	0.000656674069660133	0.4	0.4
	0.373774960790891	-0.00879858856424882	7.06510562931992e-05
	-0.00787649821426225
 24	9.58927529908334e-12	6.56259647318814e-07	4.30676724699014e-10
	0.000656259647318814	0.4	0.4
	0.383571011963334	-0.00404702704572634	6.07636209379027e-05
	-0.0098150689956057
 25	9.79463764954167e-12	6.56021278313876e-07	4.30363917600572e-10
	0.000656021278313876	0.4	0.4
	0.391785505981667	-0.00745438792797984	7.5553451620321e-05
	-0.0102746437920319
 26	1e-11	6.55921744641668e-07	4.3023333509377e-10
	0.000655921744641668	0.4	0.4
	0.4	-0.00297752283060912	6.45702645125156e-05
	-0.0122524195989508
 27	1.01607588528798e-11	6.55902156810357e-07	4.30207639308478e-10
	0.000655902156810357	0.4	0.4
	0.4	-0.00207173304826283	-1.84386373673057e-07
	-0.0134582140172538
 28	1.03439107653648e-11	6.55961961457149e-07	4.3028609487871e-10
	0.000655961961457149	0.4	0.4
	0.4	-0.00157111410543354	-1.86216833415292e-07
	-0.0151387784937641
 29	1.05246585543182e-11	6.56187367139763e-07	4.30581860793813e-10
	0.000656187367139763	0.4	0.4
	0.4	-0.00123558345817846	-1.87856760449617e-07
	-0.0168356087015756
 30	1.08861541322251e-11	6.57117125656277e-07	4.31802916830767e-10
	0.000657117125656277	0.4	0.4
	0.4	-0.000630615125684013	-1.90892914428084e-07
	-0.0202004266199611
 31	1.1366475624307e-11	6.59240873865073e-07	4.34598529774385e-10
	0.000659240873865073	0.4	0.4
	0.4	-0.000176824246425417	-1.94718742610836e-07
	-0.0244109031987097
 32	1.20646580644565e-11	6.63774281414212e-07	4.40596296666954e-10
	0.000663774281414212	0.4	0.4
	0.4	0.000360415091101714	-2.00076125450531e-07
	-0.0298199259844578
 33	1.28248304933674e-11	6.70305640522269e-07	4.49309651715969e-10
	0.000670305640522269	0.4	0.4
	0.4	0.000760118772964837	-2.05837105842906e-07
	-0.0354633337520472
 34	1.34795428410331e-11	6.76612543488282e-07	4.57804534005682e-10
	0.000676612543488282	0.4	0.4
	0.4	0.00125643667780214	-2.08251761321292e-07
	-0.0379935302230753
 35	1.40863089986547e-11	6.82509432855772e-07	4.65819125937107e-10
	0.000682509432855772	0.4	0.4
	0.4	0.000648034783398717	-2.08967750557652e-07
	-0.0387885745646774
 36	1.48045702738706e-11	6.89417154786964e-07	4.75296013314552e-10
	0.000689417154786964	0.4	0.4
	0.4	0.000671737991031033	-2.09649646423109e-07
	-0.0392575993034115
 37	1.55196103167783e-11	6.96277645316042e-07	4.84802559366853e-10
	0.000696277645316042	0.4	0.4
	0.4	0.000126574318330272	-2.10358441374267e-07
	-0.0396909808814856
 38	1.63868478637532e-11	7.04654370018689e-07	4.96537781186436e-10
	0.000704654370018689	0.4	0.4
	0.4	0.000353569494276993	-2.11217635605351e-07
	-0.0401311049800042
 39	1.75245867107492e-11	7.15783973458253e-07	5.12346696659685e-10
	0.000715783973458253	0.4	0.4
	0.4	-6.0352242224638e-05	-2.12288104174883e-07
	-0.0406610301046851
 40	1.89516232477984e-11	7.2996093866359e-07	5.3284297197463e-10
	0.00072996093866359	0.4	0.4
	0.4	0.000242101011714047	-2.13535721086474e-07
	-0.0411493002256259
 41	2.09084668411746e-11	7.49729922406221e-07	5.62094956551238e-10
	0.000749729922406221	0.4	0.4
	0.4	-0.000166578208100394	-2.15083909568237e-07
	-0.0416937559368986
 42	2.36561744551726e-11	7.78009970466637e-07	6.05299514145498e-10
	0.000778009970466637	0.4	0.4
	0.4	0.000172324852696447	-2.16929217348374e-07
	-0.0422389481158712
 43	2.69195551321671e-11	8.12165797341409e-07	6.59613282371207e-10
	0.000812165797341409	0.4	0.4
	0.4	-0.000185763453080996	-2.18599374168192e-07
	-0.0426372277209988
 44	3.10380462225257e-11	8.55799857188108e-07	7.32393395563187e-10
	0.000855799857188108	0.4	0.4
	0.4	0.00016718917981451	-2.20110109843347e-07
	-0.0429031096640737
 45	3.65433894730814e-11	9.14661598247246e-07	8.36605839308206e-10
	0.000914661598247246	0.4	0.4
	0.4	-0.000185306043089455	-2.21409491562895e-07
	-0.0431173058815514
 46	4.35564546090744e-11	9.90118263014781e-07	9.80334174755407e-10
	0.000990118263014781	0.4	0.4
	0.4	0.000173963028087522	-2.22323021674515e-07
	-0.0432196954065955
 47	5.30831888007874e-11	1.09299180730847e-06	1.19463109084344e-09
	0.00109299180730847	0.4	0.4
	0.4	-0.000180649789678269	-2.22922514853321e-07
	-0.0432943875715904
 48	6.48935582766072e-11	1.22074069797404e-06	1.49020785169014e-09
	0.00122074069797404	0.4	0.4
	0.4	0.000177770837509082	-2.23188702241872e-07
	-0.0432895753428994
 49	8.07786281707165e-11	1.39262290845643e-06	1.93939856515766e-09
	0.00139262290845643	0.4	0.4
	0.4	-0.000178928157627443	-2.23272192144075e-07
	-0.0432948365133871
 50	1.02120471456787e-10	1.62345448870346e-06	2.6356044768914e-09
	0.00162345448870346	0.4	0.4
	0.4	0.000178108571766211	-2.23291149183944e-07
	-0.0432458825835935
 51	1.33719280026427e-10	1.96491565781104e-06	3.86089354231101e-09
	0.00196491565781104	0.4	0.4
	0.4	-0.000178757866007366	-2.23285634535321e-07
	-0.0432178278549405
 52	1.95053081454343e-10	2.62661714593516e-06	6.89911763132058e-09
	0.00262661714593516	0.4	0.4
	0.4	0.000178043895436969	-2.23290434273303e-07
	-0.043108473751917
 53	3.1284502875731e-10	3.89343248168753e-06	1.51588164894595e-08
	0.00389343248168753	0.4	0.4
	0.4	-0.000178720440762117	-2.23283830849333e-07
	-0.0429542052575386
 54	5.48428923363243e-10	6.41123858082147e-06	4.11039801402137e-08
	0.00641123858082147	0.4	0.4
	0.4	0.000178028578750549	-2.23292345324669e-07
	-0.0425844713882109
 55	1.01959671257511e-09	1.13833856546233e-05	1.29581468961884e-07
	0.0113833856546233	0.4	0.4
	0.4	-0.000178701120102041	-2.2328472868045e-07
	-0.0419052395459446
 56	1.95618620082903e-09	2.10148510529982e-05	4.416239647797e-07
	0.0210148510529982	0.4	0.4
	0.4	0.000178041020010514	-2.23292992411184e-07
	-0.0404886435717525
 57	3.76478870504489e-09	3.876700130596e-05	1.5028803902563e-06
	0.03876700130596	0.4	0.4
	0.4	-0.000178699718523434	-2.23284863149492e-07
	-0.0382756675229438
 58	6.16173204882539e-09	6.07129728498331e-05	3.68606507226457e-06
	0.0607129728498331	0.4	0.4
	0.4	0.000178080583709727	-2.23294685425344e-07
	-0.0353978280944019
 59	9.41478755879985e-09	8.76634706855441e-05	7.68488409263526e-06
	0.0876634706855441	0.4	0.4
	0.4	-0.000178624388513173	-2.23288193313327e-07
	-0.0315875759678519
 60	1.30407271127333e-08	0.000113980281680035	1.29915046118602e-05
	0.113980281680035	0.4	0.4
	0.4	0.000178151993085262	-2.23297519345127e-07
	-0.0275328700988362
 61	1.66666666666667e-08	0.000136658848266101	1.86756408094172e-05
	0.136658848266101	0.4	0.4
	0.4	-0.000178546179003966	-2.23291086996228e-07
	-0.0239480073634413
 62	1.66691666666667e-08	0.000136673013655389	1.86795126616462e-05
	0.136673013655389	0.4	0.4
	0.300000000000019	0.00346631616592768	-0.000321317925376645
	-0.0239742608491262
 63	1.66718043860521e-08	0.000136686856667986	1.86832967857746e-05
	0.136686856667986	0.4	0.4
	0.194491224581507	0.00533418729005583	-0.00275131450841033
	-0.0177310190711542
 64	1.66725155637337e-08	0.00013668920860456	1.86839397489409e-05
	0.13668920860456	0.4	0.4
	0.16604411731724	0.0133655070343815	-0.00395037569082926
	-0.0166231706197119
 65	1.66735294240371e-08	0.000136692138084722	1.86847406141728e-05
	0.136692138084722	0.4	0.4
	0.125489705181987	0.0101368154570585	-0.00589255794628318
	-0.0145884661723823
 66	1.66744778329571e-08	0.000136694584480722	1.86854094263573e-05
	0.136694584480722	0.4	0.4
	0.0875533483842641	0.0154852753003903	-0.00789822621070215
	-0.0117056069369491
 67	1.66753744285284e-08	0.000136696408085781	1.86859079835545e-05
	0.136696408085781	0.4	0.4
	0.0516895255304343	0.0113504607778404	-0.00943130970903032
	-0.0101177693260032
 68	1.66760135120887e-08	0.000136697406435526	1.86861809261994e-05
	0.136697406435526	0.4	0.4
	0.0261261831192917	0.0153084409031801	-0.010073272749707
	-0.00883703970027938
 69	1.66766666666667e-08	0.000136698237914177	1.8686408248841e-05
	0.136698237914177	0.4	0.4
	0	0.0101065753208214	-0.0100727355045654
	-0.00873568251968854
 70	1.66768652228391e-08	0.000136698480620632	1.86864746039894e-05
	0.136698480620632	0.4	0.4
	0	0.00880642714351068	-0.00972663188153704
	-0.00726510630639465
 71	1.66771992936547e-08	0.00013669884317335	1.86865737249321e-05
	0.13669884317335	0.4	0.4
	0	0.00662370071551665	-0.00919935038422738
	-0.00596057003089518
 72	1.66775088223092e-08	0.000136699099669544	1.86866438504639e-05
	0.136699099669544	0.4	0.4
	0	0.0050718590578516	-0.00875033232578688
	-0.00515017120009092
 73	1.66781214263836e-08	0.000136699412314651	1.86867293271711e-05
	0.136699412314651	0.4	0.4
	0	0.00302500657216703	-0.00807852934307475
	-0.00411703912959008
 74	1.66787522827964e-08	0.00013669951197814	1.86867565750618e-05
	0.13669951197814	0.4	0.4
	0	0.0016484743230271	-0.00752882712893805
	-0.00362582119069294
 75	1.66796078840389e-08	0.00013669937160802	1.86867181980274e-05
	0.13669937160802	0.4	0.4
	0	0.000449509212733522	-0.00692786303692653
	-0.00341107086740941
 76	1.66799992409303e-08	0.000136699153679189	1.86866586166066e-05
	0.136699153679189	0.4	0.4
	0	-0.000142400185602283	-0.00637231926438781
	-0.0035469801525721
 77	1.66803957060984e-08	0.000136698860858581	1.86865785600337e-05
	0.136698860858581	0.4	0.4
	0	-0.00069507408482456	-0.00586271648069185
	-0.00358123373882227
 78	1.66806235834305e-08	0.00013669871776366	1.86865394382289e-05
	0.13669871776366	0.4	0.4
	0	-0.00026624910145289	-0.00567607039602997
	-0.0038822117988699
 79	1.66808782842766e-08	0.000136698612653893	1.8686510701499e-05
	0.136698612653893	0.4	0.4
	0	0.000508770670872015	-0.00550884663266252
	-0.00411647405120266
 80	1.66812652684099e-08	0.000136698595273325	1.86865059497004e-05
	0.136698595273325	0.4	0.4
	0	0.00136014120175361	-0.00509926829625934
	-0.00477544710007401
 81	1.66818098522507e-08	0.000136698837604349	1.86865722023801e-05
	0.136698837604349	0.4	0.4
	0	0.00175380774447978	-0.00442471293955948
	-0.00530273961947245
 82	1.66822971789871e-08	0.000136699262104275	1.86866882598532e-05
	0.136699262104275	0.4	0.4
	0	0.00150763894547619	-0.00375742664686271
	-0.00579083496111526
 83	1.66827814975742e-08	0.000136699806444927	1.86868370820805e-05
	0.136699806444927	0.4	0.4
	0	0.00138275862054163	-0.00320151895115465
	-0.00593564171801725
 84	1.66833585081736e-08	0.000136700556929339	1.86870422647915e-05
	0.136700556929339	0.4	0.4
	0	0.00102776262211567	-0.00260369078389174
	-0.0062886035587886
 85	1.66840980109636e-08	0.000136701616599683	1.86873319809666e-05
	0.136701616599683	0.4	0.4
	0	0.000878919304132741	-0.00205138152751389
	-0.00638439709152588
 86	1.66850629645552e-08	0.000136703091335629	1.86877351807174e-05
	0.136703091335629	0.4	0.4
	0	0.000564382409006652	-0.00149426117216778
	-0.00670391040481158
 87	1.66863560152723e-08	0.000136705153573154	1.86882990134597e-05
	0.136705153573154	0.4	0.4
	0	0.000492119008759933	-0.00104429586539913
	-0.00676794038821148
 88	1.66881367115924e-08	0.000136708067649923	1.86890957605758e-05
	0.136708067649923	0.4	0.4
	0	0.000243160160533126	-0.000636937318975809
	-0.00701578115917567
 89	1.66902634940067e-08	0.000136711600280381	1.86900616512227e-05
	0.136711600280381	0.4	0.4
	0	0.000240714654061174	-0.000402593966578553
	-0.00698274430916465
 90	1.66928208524138e-08	0.000136715883680008	1.86912328504055e-05
	0.136715883680008	0.4	0.4
	0	6.06565319113744e-05	-0.000214881413457088
	-0.00714107178403993
 91	1.66959660915486e-08	0.000136721177881686	1.86926804813557e-05
	0.136721177881686	0.4	0.4
	0	0.00011239978634414	-0.000129108088065416
	-0.00705526336257795
 92	1.66999726670882e-08	0.0001367279411729	1.869452989738e-05
	0.1367279411729	0.4	0.4
	0	-2.41142662707426e-05	-4.38179700599962e-05
	-0.00718243713450875
 93	1.67051438596622e-08	0.000136736683613496	1.86969206456172e-05
	0.136736683613496	0.4	0.4
	0	6.21803038497902e-05	-3.00705204963609e-05
	-0.00707718503880366
 94	1.67119705770055e-08	0.000136748232117373	1.87000789872268e-05
	0.136748232117373	0.4	0.4
	0	-4.98589504272557e-05	6.09738321813371e-06
	-0.00719179334813742
 95	1.67212982601994e-08	0.000136764012719475	1.87043951751327e-05
	0.136764012719475	0.4	0.4
	0	5.25623234944946e-05	-1.12655834068504e-05
	-0.00707859237960675
 96	1.67346488852037e-08	0.000136786593473609	1.87105721541144e-05
	0.136786593473609	0.4	0.4
	0	-5.21086325682545e-05	1.04486875312068e-05
	-0.00718851742542908
 97	1.67563573390936e-08	0.000136823292087842	1.87206132577548e-05
	0.136823292087842	0.4	0.4
	0	5.24175826245217e-05	-1.09714458501158e-05
	-0.00707206086529622
 98	1.67995298604584e-08	0.000136896207938054	1.87405717478189e-05
	0.136896207938054	0.4	0.4
	0	-5.20972497686254e-05	1.04193092515576e-05
	-0.0071762873235861
 99	1.6885874903188e-08	0.000137041768242265	1.87804462429665e-05
	0.137041768242265	0.4	0.4
	0	5.24156437429121e-05	-1.09657284833021e-05
	-0.00704771017261416
 100	1.70585649886472e-08	0.000137331806240259	1.8860025005212e-05
	0.137331806240259	0.4	0.4
	0	-5.20983660297243e-05	1.04180664586272e-05
	-0.00712772287918608
 101	1.74039451595656e-08	0.000137907579540796	1.9018500494801e-05
	0.137907579540796	0.4	0.4
	0	5.24134182723018e-05	-1.09645795795561e-05
	-0.00695115794050787
 102	1.80947055014024e-08	0.000139042130806014	1.93327141390766e-05
	0.139042130806014	0.4	0.4
	0	-5.21030303377568e-05	1.04190790992095e-05
	-0.00693688609858635
 103	1.94762261850759e-08	0.000141244655085255	1.99500525901526e-05
	0.141244655085255	0.4	0.4
	0	5.24064555401497e-05	-1.09617725686437e-05
	-0.00657785854721278
 104	2.22392675524229e-08	0.000145399166524288	2.11409176259576e-05
	0.145399166524288	0.4	0.4
	0	-5.2116610643982e-05	1.04252287951365e-05
	-0.0062360352708038
 105	2.7765350287117e-08	0.000152820958821475	2.33542454551148e-05
	0.152820958821475	0.4	0.4
	0	5.23740738869762e-05	-1.09535765813753e-05
	-0.00533179115380955
 106	3.33333333333333e-08	0.00015925974430602	2.53636661564189e-05
	0.15925974430602	0.4	0.4
	0	-5.21524453102304e-05	1.04357780293038e-05
	-0.00478622236625875
 107	3.33333723958333e-08	0.000159259812239642	2.53636877946061e-05
	0.159259812239642	0.4	0.4
	0.00156249999984461	-0.00265466344181593	2.90846015254584e-05
	-0.004478627921444
 108	3.33334505208333e-08	0.000159259947495633	2.53637308763119e-05
	0.159259947495633	0.4	0.4
	0.00468749999953382	-0.00292873256709367	8.45270224491669e-05
	-0.00433534036305679
 109	3.33336067708333e-08	0.000159260214892567	2.53638160476267e-05
	0.159260214892567	0.4	0.4
	0.0109374999989123	-0.0034403757805672	0.000185676482218567
	-0.00408659481443937
 110	3.33339192708333e-08	0.000159260742551525	2.53639841180631e-05
	0.159260742551525	0.4	0.4
	0.0234374999976691	-0.00432244938560271	0.000358519077451064
	-0.00371185007624463
 111	3.33345442708332e-08	0.000159261802022175	2.53643215833505e-05
	0.159261802022175	0.4	0.4
	0.0484374999951828	-0.00568230665241176	0.000609273322061749
	-0.00327292124562395
 112	3.33355185740772e-08	0.000159263518344762	2.53648682755523e-05
	0.159263518344762	0.4	0.4
	0.0874096297565761	-0.00722697806202624	0.000830111484329557
	-0.00305149457454561
 113	3.33366613397346e-08	0.00015926561204944	2.53655351814827e-05
	0.15926561204944	0.4	0.4
	0.133120256049143	-0.00905464432090824	0.000912346513222925
	-0.00312243384480326
 114	3.33382238398454e-08	0.000159268286889238	2.53663872086327e-05
	0.159268286889238	0.4	0.4
	0.195620260483498	-0.0123202695108909	0.000791270699954662
	-0.00344279225699425
 115	3.33397806972111e-08	0.000159270047051903	2.53669478879154e-05
	0.159270047051903	0.4	0.4
	0.25789455510925	-0.0163912539322967	0.00040506858305674
	-0.00351541258421497
 116	3.33401478179068e-08	0.000159270179878469	2.536699019852e-05
	0.159270179878469	0.4	0.4
	0.27257938293981	-0.0170058536775079	0.000307231556412429
